date Mon Jan 13 10:30:00 2026
base hex  timestamps absolute
internal events logged
// version 9.0.0
Begin Triggerblock Mon Jan 13 10:30:00 2026
   0.000000 Start of measurement
End TriggerBlock

// Engine startup sequence
   0.000123 1  100             Rx   d 8 00 00 50 14 00 00 00 00
   0.010245 1  200             Rx   d 8 00 00 01 4B 50 00 00 00
   0.020367 1  300             Rx   d 8 00 00 00 00 00 00 00 00
   0.030489 1  400             Rx   d 8 00 0F 00 00 50 00 00 00
   0.040611 1  500             Rx   d 8 00 00 00 00 00 00 00 00

// Idle RPM ~800, engine warming up
   0.050733 1  100             Rx   d 8 00 0C 50 14 00 00 00 00
   0.060855 1  200             Rx   d 8 00 00 01 4B 50 00 00 00
   0.070977 1  100             Rx   d 8 40 0C 52 14 00 00 00 00
   0.081099 1  300             Rx   d 8 00 00 00 00 00 00 00 00
   0.091221 1  100             Rx   d 8 80 0C 54 14 00 00 00 00

// Vehicle starts moving
   0.101343 1  100             Rx   d 8 C0 0C 56 15 00 00 00 00
   0.111465 1  200             Rx   d 8 64 00 01 4C 50 00 00 00
   0.121587 1  500             Rx   d 8 E8 03 01 00 00 00 00 00
   0.131709 1  100             Rx   d 8 00 0D 58 15 00 00 00 00
   0.141831 1  200             Rx   d 8 C8 00 01 4D 50 00 00 00

// Accelerating - RPM rising
   0.151953 1  100             Rx   d 8 40 0D 5A 16 00 00 00 00
   0.162075 1  200             Rx   d 8 2C 01 02 4E 50 00 00 00
   0.172197 1  100             Rx   d 8 80 0D 5C 17 00 00 00 00
   0.182319 1  300             Rx   d 8 00 05 00 00 00 00 00 00
   0.192441 1  100             Rx   d 8 C0 0D 5E 18 00 00 00 00

// Speed ~30 km/h, RPM ~1500
   0.202563 1  100             Rx   d 8 00 0E 60 19 00 00 00 00
   0.212685 1  200             Rx   d 8 90 01 02 4F 51 00 00 00
   0.222807 1  400             Rx   d 8 28 0F 00 00 51 00 00 00
   0.232929 1  100             Rx   d 8 40 0E 62 1A 00 00 00 00
   0.243051 1  200             Rx   d 8 F4 01 02 50 51 00 00 00

// Speed ~50 km/h, gear shift to 3rd
   0.253173 1  100             Rx   d 8 80 10 64 1B 00 00 00 00
   0.263295 1  200             Rx   d 8 58 02 03 51 52 00 00 00
   0.273417 1  500             Rx   d 8 20 03 02 00 00 00 00 00
   0.283539 1  100             Rx   d 8 C0 12 66 1C 00 00 00 00
   0.293661 1  200             Rx   d 8 BC 02 03 52 52 00 00 00

// Cruising at ~70 km/h
   0.303783 1  100             Rx   d 8 00 14 68 1D 00 00 00 00
   0.313905 1  200             Rx   d 8 20 03 03 53 53 00 00 00
   0.324027 1  300             Rx   d 8 00 0A 00 00 00 00 00 00
   0.334149 1  100             Rx   d 8 40 15 6A 1E 00 00 00 00
   0.344271 1  200             Rx   d 8 84 03 03 54 53 00 00 00

// Gear shift to 4th
   0.354393 1  100             Rx   d 8 80 16 6C 1F 00 00 00 00
   0.364515 1  200             Rx   d 8 E8 03 04 55 54 00 00 00
   0.374637 1  400             Rx   d 8 50 0F 00 00 54 00 00 00
   0.384759 1  100             Rx   d 8 C0 17 6E 20 00 00 00 00
   0.394881 1  200             Rx   d 8 4C 04 04 56 54 00 00 00

// Speed ~100 km/h, RPM ~2500
   0.405003 1  100             Rx   d 8 00 19 70 21 00 00 00 00
   0.415125 1  200             Rx   d 8 B0 04 04 57 55 00 00 00
   0.425247 1  500             Rx   d 8 88 13 03 00 00 00 00 00
   0.435369 1  100             Rx   d 8 40 1A 72 22 00 00 00 00
   0.445491 1  200             Rx   d 8 14 05 04 58 55 00 00 00

// Gear shift to 5th
   0.455613 1  100             Rx   d 8 80 1B 74 23 00 00 00 00
   0.465735 1  200             Rx   d 8 78 05 05 59 56 00 00 00
   0.475857 1  300             Rx   d 8 00 0F 00 00 00 00 00 00
   0.485979 1  100             Rx   d 8 C0 1C 76 24 00 00 00 00
   0.496101 1  200             Rx   d 8 DC 05 05 5A 56 00 00 00

// Cruising at ~120 km/h
   0.506223 1  100             Rx   d 8 00 1E 78 25 00 00 00 00
   0.516345 1  200             Rx   d 8 40 06 05 5B 57 00 00 00
   0.526467 1  400             Rx   d 8 78 0F 00 00 57 00 00 00
   0.536589 1  100             Rx   d 8 40 1F 7A 26 00 00 00 00
   0.546711 1  200             Rx   d 8 A4 06 05 5C 57 00 00 00

// Braking event
   0.556833 1  100             Rx   d 8 00 1D 7C 27 00 00 00 00
   0.566955 1  200             Rx   d 8 08 07 05 5D 58 00 00 00
   0.577077 1  300             Rx   d 8 C4 09 01 01 00 00 00 00
   0.587199 1  100             Rx   d 8 C0 1B 7E 28 00 00 00 00
   0.597321 1  200             Rx   d 8 6C 07 05 5E 58 00 00 00

// Speed decreasing
   0.607443 1  100             Rx   d 8 80 1A 80 29 00 00 00 00
   0.617565 1  200             Rx   d 8 D0 07 04 5F 59 00 00 00
   0.627687 1  300             Rx   d 8 70 17 01 01 00 00 00 00
   0.637809 1  400             Rx   d 8 A0 0F 00 00 59 00 00 00
   0.647931 1  100             Rx   d 8 40 19 82 2A 00 00 00 00

// Downshift to 3rd
   0.658053 1  200             Rx   d 8 34 08 03 60 5A 00 00 00
   0.668175 1  500             Rx   d 8 F4 01 04 00 00 00 00 00
   0.678297 1  100             Rx   d 8 00 18 84 2B 00 00 00 00
   0.688419 1  200             Rx   d 8 98 08 03 61 5A 00 00 00

// Coming to stop
   0.698541 1  100             Rx   d 8 C0 16 86 2C 00 00 00 00
   0.708663 1  200             Rx   d 8 FC 08 02 62 5B 00 00 00
   0.718785 1  300             Rx   d 8 58 1B 01 01 00 00 00 00
   0.728907 1  100             Rx   d 8 80 14 88 2D 00 00 00 00
   0.739029 1  200             Rx   d 8 60 09 01 63 5B 00 00 00

// Stopped, idle
   0.749151 1  100             Rx   d 8 00 0C 8A 2E 00 00 00 00
   0.759273 1  200             Rx   d 8 00 00 00 64 5C 00 00 00
   0.769395 1  300             Rx   d 8 00 00 00 00 00 00 00 00
   0.779517 1  400             Rx   d 8 28 0F 00 00 5C 00 00 00
   0.789639 1  500             Rx   d 8 00 00 05 00 00 00 00 00

// Engine off
   0.799761 1  100             Rx   d 8 00 00 8C 2F 00 00 00 00
   0.809883 1  200             Rx   d 8 00 00 00 65 5D 00 00 00